=N:[UVMSource] Using sources from '/home/wilsalv/AltairDSim/2025.1/uvm/2020.3.1'
=N:[UsageMeter (2025-10-24 19:03:12 -0700)] usage server initial connection
=N:[License] 
Licensed for Altair DSim Cloud.
=N:[License] New lease granted.
Using default typical min/typ/max.
=S:Begin run-time elaboration and static initialization...
=N:Starting event scheduler...
=W:[NullDynCast] /home/wilsalv/AltairDSim/2025.1/uvm/2020.3.1/src/base/uvm_component.svh:1949:7
    $cast(..., null) behaves differently on various simulators.
    included from /home/wilsalv/AltairDSim/2025.1/uvm/2020.3.1/src/base/uvm_base.svh:125:3
    included from /home/wilsalv/AltairDSim/2025.1/uvm/2020.3.1/src/uvm_pkg.sv:57:2
UVM_INFO /home/wilsalv/AltairDSim/2025.1/uvm/2020.3.1/src/base/uvm_root.svh(476) @ 0: reporter [UVM/RELNOTES] 
  ***********       IMPORTANT RELEASE NOTES         ************

  This implementation of the UVM Library deviates from the 1800.2-2020
  standard.  See the DEVIATIONS.md file contained in the release
  for more details.

----------------------------------------------------------------
Accellera:1800.2:UVM:2020.3.1

All copyright owners for this kit are listed in NOTICE.txt
All Rights Reserved Worldwide
----------------------------------------------------------------

      (Specify +UVM_NO_RELNOTES to turn off this notice)

UVM_INFO @ 0: reporter [RNTST] Running test apb_test...
TB_TOP running at time 0
=N:[dumpVCD] apb_tb_example.sv:282:5: preparing VCD dump to 'waves.vcd'.
TB_TOP finished at time 0
UVM_INFO apb_tb_example.sv(56) @ 1000: uvm_test_top.apb_environment.apb_agent.apb_sequencer@@apb_sequence [APB_SEQ] PADDR: 0x11 PWRITE: 0x1 PWDATA: 0x1110c320
UVM_INFO apb_tb_example.sv(96) @ 1000: uvm_test_top.apb_environment.apb_agent.apb_driver [APB_DRIVER] PADDR: 0x11 PWRITE: 0x1 PWDATA: 0x1110c320
UVM_INFO apb_tb_example.sv(143) @ 7000: uvm_test_top.apb_environment.apb_agent.apb_monitor [APB_MONITOR] PADDR: 0x11 PWRITE: 0x1 PWDATA: 0x1110c320 PRDATA: 0x0 PSLVERR: 0x0
UVM_INFO apb_tb_example.sv(173) @ 7000: uvm_test_top.apb_environment.apb_scoreboard [APB_SCOREBOARD] PADDR: 0x11 PWRITE: 0x1  PWDATA: 0x1110c320 PRDATA: 0x0 PSLVERR: 0x0

UVM_INFO apb_tb_example.sv(56) @ 7000: uvm_test_top.apb_environment.apb_agent.apb_sequencer@@apb_sequence [APB_SEQ] PADDR: 0x5 PWRITE: 0x1 PWDATA: 0xa634f998
UVM_INFO apb_tb_example.sv(96) @ 7000: uvm_test_top.apb_environment.apb_agent.apb_driver [APB_DRIVER] PADDR: 0x5 PWRITE: 0x1 PWDATA: 0xa634f998
UVM_INFO apb_tb_example.sv(143) @ 13000: uvm_test_top.apb_environment.apb_agent.apb_monitor [APB_MONITOR] PADDR: 0x5 PWRITE: 0x1 PWDATA: 0xa634f998 PRDATA: 0x0 PSLVERR: 0x0
UVM_INFO apb_tb_example.sv(173) @ 13000: uvm_test_top.apb_environment.apb_scoreboard [APB_SCOREBOARD] PADDR: 0x5 PWRITE: 0x1  PWDATA: 0xa634f998 PRDATA: 0x0 PSLVERR: 0x0

UVM_INFO apb_tb_example.sv(56) @ 13000: uvm_test_top.apb_environment.apb_agent.apb_sequencer@@apb_sequence [APB_SEQ] PADDR: 0x1c PWRITE: 0x1 PWDATA: 0xa29fb780
UVM_INFO apb_tb_example.sv(96) @ 13000: uvm_test_top.apb_environment.apb_agent.apb_driver [APB_DRIVER] PADDR: 0x1c PWRITE: 0x1 PWDATA: 0xa29fb780
UVM_INFO apb_tb_example.sv(143) @ 19000: uvm_test_top.apb_environment.apb_agent.apb_monitor [APB_MONITOR] PADDR: 0x1c PWRITE: 0x1 PWDATA: 0xa29fb780 PRDATA: 0x0 PSLVERR: 0x0
UVM_INFO apb_tb_example.sv(173) @ 19000: uvm_test_top.apb_environment.apb_scoreboard [APB_SCOREBOARD] PADDR: 0x1c PWRITE: 0x1  PWDATA: 0xa29fb780 PRDATA: 0x0 PSLVERR: 0x0

UVM_INFO apb_tb_example.sv(56) @ 19000: uvm_test_top.apb_environment.apb_agent.apb_sequencer@@apb_sequence [APB_SEQ] PADDR: 0x1 PWRITE: 0x0 PWDATA: 0xda92a98c
UVM_INFO apb_tb_example.sv(96) @ 19000: uvm_test_top.apb_environment.apb_agent.apb_driver [APB_DRIVER] PADDR: 0x1 PWRITE: 0x0 PWDATA: 0xda92a98c
UVM_INFO apb_tb_example.sv(143) @ 25000: uvm_test_top.apb_environment.apb_agent.apb_monitor [APB_MONITOR] PADDR: 0x1 PWRITE: 0x0 PWDATA: 0xda92a98c PRDATA: 0x0 PSLVERR: 0x0
UVM_INFO apb_tb_example.sv(173) @ 25000: uvm_test_top.apb_environment.apb_scoreboard [APB_SCOREBOARD] PADDR: 0x1 PWRITE: 0x0  PWDATA: 0xda92a98c PRDATA: 0x0 PSLVERR: 0x0

UVM_INFO apb_tb_example.sv(56) @ 25000: uvm_test_top.apb_environment.apb_agent.apb_sequencer@@apb_sequence [APB_SEQ] PADDR: 0x3 PWRITE: 0x1 PWDATA: 0xacfc4e2a
UVM_INFO apb_tb_example.sv(96) @ 25000: uvm_test_top.apb_environment.apb_agent.apb_driver [APB_DRIVER] PADDR: 0x3 PWRITE: 0x1 PWDATA: 0xacfc4e2a
UVM_INFO /home/wilsalv/AltairDSim/2025.1/uvm/2020.3.1/src/base/uvm_report_server.svh(1009) @ 27000: reporter [UVM/REPORT/SERVER] 
--- UVM Report Summary ---

** Report counts by severity
UVM_INFO :   20
UVM_WARNING :    0
UVM_ERROR :    0
UVM_FATAL :    0
** Report counts by id
[APB_DRIVER]     5
[APB_MONITOR]     4
[APB_SCOREBOARD]     4
[APB_SEQ]     5
[RNTST]     1
[UVM/RELNOTES]     1

=T:Simulation terminated by $finish at time 27000 (/home/wilsalv/AltairDSim/2025.1/uvm/2020.3.1/src/base/uvm_root.svh:633);
Run directory: /home/wilsalv/Desktop/Verification_Projects/Vortex/hw/tb/sample_simple_tb_and_design
  System timescale is 1ps / 1ps
  Altair DSim version: 2025.1.0 (b:R #c:449 h:df8da7d488 os:rocky_8.10)
  Random seed: (defaulted to 1)
